#Digilent WaveForms Network Analyzer - Bode
#Device Name: Discovery2
#Serial Number: SN:210321AFD7CC
#Date Time: 2020-11-21 06:01:09.564
#Start: 0.05 Hz
#Stop: 5000 Hz
#Steps: 501
#Wavegen: Wavegen1
#Amplification: 1 X
#Settle: 10 ms
#MinPeriods: 16 
#Channel: Channel 1
#Range: 54.3664 V
#Offset: 0.00145283 V
#Relative: no
#Channel: Channel 2
#Range: 54.9218 V
#Offset: 0.00173285 V
#Relative: yes

Frequency (Hz),Channel 1 Magnitude (dB),Channel 2 Magnitude (dB),Channel 2 Phase (deg)
0.05,0.09119024565992323,-66.47577030390225,78.82660645026873
0.05116464961403768,0.09018015490113178,-70.16026458708649,134.3833447251711
0.05235642740254492,0.09203382713953455,-70.27656294477605,107.2741650522295
0.05357596526188035,0.09073054854500882,-77.10685165475152,69.12665047168652
0.05482390980715926,0.09156276449161076,-66.09381570029043,88.47447583977315
0.05610092271509815,0.09049810018194082,-71.4529684659912,102.8895100776125
0.0574076810748442,0.09334665279305698,-65.71478324921526,111.4771498359862
0.05874487774697651,0.09171287959558226,-78.67050991867939,67.24376883146525
0.06011322173087066,0.09133011100376438,-78.52880034629007,83.64069289170527
0.06151343854061905,0.08853544412176434,-84.42344769667024,112.810339755974
0.06294627058970831,0.09067832122828108,-64.93604279009934,100.8152191520315
0.06441247758465674,0.09007414471813208,-65.82795312594813,86.6357033262411
0.06591283692782038,0.09246219584136815,-68.55705183463837,123.7920448981776
0.06744814412958267,0.09169837581523987,-77.13480447414581,155.209299132454
0.06901921323014433,0.09294324116077257,-63.887462332458,99.50802267956828
0.07062687723113778,0.09153080492277499,-67.61386818535695,69.38880771673347
0.0722719885372964,0.09204840867497457,-72.61829706519295,134.1279531359782
0.07395541940841036,0.09235153286680264,-63.73172421746834,101.4418601092804
0.07567806242181035,0.09092916060859484,-66.91734775749248,81.980038446733
0.07744083094562414,0.09184821483046396,-72.76176922703672,95.63528471998092
0.0792446596230557,0.09145176342768016,-64.96527706324278,101.4844603240534
0.08109050486794649,0.09127730305844323,-63.32799311791358,81.26330841519871
0.08297934537187816,0.09128933853568155,-73.90803962063509,159.2332514079976
0.08491218262308729,0.09079567831141848,-66.14900134933505,107.7848963413303
0.08689004143746883,0.09207271814164893,-70.07210019284285,93.99595007522682
0.08891397050194615,0.09185485331700173,-65.53569242974265,104.5277809110436
0.09098504293049914,0.09117560036528871,-67.63654655835447,101.2537979577812
0.09310435683314347,0.09158930199989217,-63.35762964527606,77.29147012699588
0.09527303589816243,0.09098417454453807,-73.64659589975815,86.40703694624231
0.09749222998790227,0.09005396139873315,-70.17584626188788,98.99599977563116
0.09976311574844415,0.09153607181159912,-70.68183743366217,123.3387352968577
0.1020868972334766,0.0940842733798823,-71.88329761732426,75.0243203708372
0.104464806542702,0.0922828148726666,-67.32695467145712,129.4058849103074
0.1068981044751116,0.09137176470081691,-62.91153151648697,110.9360838573283
0.1093880811974776,0.09219945957026512,-63.48609167639977,128.0455828744829
0.1119360569284171,0.09178624576351906,-70.60766062438547,137.8365217780614
0.1145433826383885,0.091474569999819,-62.18362768848627,104.7659121979413
0.1172114407659961,0.09301023629125871,-63.69042045394852,94.52646540781065
0.1199416459509745,0.0915058179896666,-62.4841334613738,77.02370757122054
0.1227354457842514,0.09316929107465347,-61.25363598450014,90.36407437348271
0.1255943215754789,0.09153817430312108,-63.18493540407844,86.62740484013842
0.1285197891384432,0.09173318873332387,-62.28374728998223,94.11615702411747
0.1315133995947691,0.0905596843703888,-59.8767852721041,89.84633644851088
0.1345767401963457,0.09061100930910496,-63.6758392958041,70.69109182565174
0.1377114351669082,0.09135067625198502,-63.82215582030437,85.14765661142019
0.1409191465632227,0.0905489084263128,-60.93043623606899,98.38940361665072
0.1442015751563303,0.09066774102371465,-66.64414052871028,92.09625023555108
0.1475604613333192,0.09199464207188078,-63.91206422856645,92.8845042388327
0.1509975860201007,0.09175967311402565,-61.32722906953222,80.94382772344677
0.1545147716256796,0.09087945547712248,-62.37460418575935,102.2528834218761
0.158113883008419,0.09091622040781755,-63.76676954954365,92.96865877964103
0.1617968284648141,0.09088384797745243,-60.06486838577356,86.18566650752138
0.1655655607412954,0.08887825413177627,-65.8890014075586,85.3345927458771
0.1694220780696014,0.09189430304033919,-62.28250361392368,94.08313909639804
0.1733684252262658,0.09100805145425628,-60.14147843007837,93.24415631685775
0.1774066946167877,0.09108408906192952,-62.28141947762138,83.02419857138527
0.1815390273850505,0.09295394084675328,-61.47017861788188,95.72151710617993
0.1857676145485864,0.0923839476430456,-61.34996259276694,81.94157065405679
0.1900946981602806,0.09203143732228343,-59.95473965099344,96.24273077918728
0.1945225724971402,0.09206634499734223,-61.39698101361675,107.5856074342848
0.1990535852767485,0.09074310072662252,-62.9101917227799,90.07834384410063
0.2036901389020565,0.09218859346286733,-60.8565847725609,93.13521596989698
0.2084346917351678,0.09248424435607512,-61.73706905648302,88.5163319067196
0.2132897594007963,0.09060992990564007,-62.82534499545177,92.5926552700497
0.2182579161200828,0.09131354798440175,-63.33906843037856,89.84159959803196
0.2233417960754817,0.09069309447293078,-60.35827813766994,91.03549012782304
0.2285440948074376,0.09038868424364208,-63.45612518391445,96.12260231718523
0.2338675706435991,0.09188695253136474,-62.91164248702844,95.0812717867376
0.239315046161319,0.09156144916060831,-61.79131007101432,88.89161770370168
0.2448894096842233,0.09265131037007908,-61.24698818905063,85.5368201846087
0.2505936168136362,0.09276203643431261,-62.52980724984086,92.04172776950901
0.2564306919956824,0.09278087078807494,-61.86127284717189,91.26315107108923
0.2624037301248862,0.09267272119708719,-61.30240304632618,102.1038290572455
0.2685158981851266,0.09197060279325259,-61.30600842751038,92.43681028247033
0.2747704369288124,0.09263283027534377,-60.03364045441611,86.6288298861773
0.2811706625951745,0.08951901048237816,-60.29146980602857,95.76342715645097
0.2877199686685783,0.09178552444515874,-60.25439042834685,92.60805907510809
0.2944218276777948,0.09023900201230167,-60.22566232556233,95.37903984552383
0.3012797930371791,0.09302678012236108,-59.58965683466048,98.49133871966956
0.3082975009307411,0.09072290032599234,-61.44373961700371,88.02393509089006
0.3154786722400965,0.09079858746843264,-59.49443620984652,96.66746455470798
0.3228271145173282,0.09248050556137888,-59.07249116669827,90.79773583175961
0.3303467240037982,0.09309091181302645,-60.18948222373361,91.87898807295994
0.338041487695991,0.09164480325480553,-58.6523605046871,85.34161411558773
0.3459154854594682,0.09317261545716499,-58.94203291609594,87.40836768234637
0.3539728921920694,0.09227421614057375,-59.34569141003347,87.5375826580413
0.3622179800374946,0.09358375793033893,-59.37811903016022,86.64341150603181
0.3706551206504581,0.09090154499708053,-58.26605821638201,86.97183637033257
0.3792887875145918,0.09127799680642362,-59.78398721852606,91.84918852351325
0.3881235583143456,0.09137947730832367,-58.35501016543364,92.47256768390491
0.3971641173621403,0.0908710010640198,-58.34061290423388,90.78895388881881
0.4064152580820497,0.09280144937947712,-57.08538481891917,89.205455061896
0.4158818855513354,0.09120992728015337,-58.4289526317859,99.67502469379664
0.425569019101188,0.09112858705346383,-56.20918155867282,84.81807626866379
0.4354817949780398,0.09260455455131197,-57.40461809826382,83.44515869506327
0.4456254690668721,0.09012762099996054,-56.77893859478236,88.81744623066115
0.4560054196779548,0.09182878268620748,-56.53228143105622,90.74233081865273
0.4666271503984952,0.09217965251623517,-56.41018851168741,91.69261983651728
0.4774962930107175,0.09154608008493015,-56.22465472808251,93.49770570936077
0.4886186104779056,0.09157760094902923,-55.51816177730594,88.04414655280726
0.5,0.09116873153008352,-55.88285260752963,93.96472642160103
0.5116464961403768,0.09220398693909299,-54.88855435323264,92.112846613809
0.5235642740254492,0.09114339786811096,-55.5990863556792,91.50795173074656
0.535759652618803,0.09154514614939815,-54.57589717548309,92.53901497425045
0.5482390980715925,0.09100623368913817,-55.31014387695522,94.08589076951093
0.5610092271509816,0.09118460417369437,-54.47349649145424,88.27294922901369
0.5740768107484409,0.09145533447722887,-54.51807574821602,90.43553602696485
0.5874487774697645,0.09097329600135136,-54.4690066371215,89.44733581031133
0.6011322173087066,0.09081614628529369,-54.0148752035988,90.16742401274563
0.6151343854061906,0.09113729032526,-53.58517437827314,94.64894246839143
0.6294627058970831,0.09221357461394389,-53.48702094179596,89.52823607178212
0.6441247758465668,0.09104126459683767,-53.96543136921504,88.15110260190497
0.6591283692782037,0.09166537273291436,-52.99808481332321,87.17293416935277
0.6744814412958267,0.09235372237530896,-53.07973973291664,92.78241083185679
0.6901921323014419,0.09280597335442944,-52.89291692349992,89.40621091023684
0.7062687723113771,0.09255121477422303,-52.84993562918608,89.0204081280674
0.7227198853729639,0.09177258552409989,-52.15338107065448,88.70097812905814
0.7395541940841036,0.0919975382995753,-52.0074500327872,88.57140042673279
0.7567806242181035,0.09306489336168781,-51.98042488560422,88.99522459831216
0.7744083094562405,0.09278263053659874,-52.59373151573453,86.36860188265833
0.7924465962305571,0.09108558756788558,-51.73351791733427,92.91787400037754
0.8109050486794649,0.09180867107319746,-51.337433984689,92.09487873008091
0.8297934537187798,0.09232383689409479,-51.47439648504987,88.812061499902
0.8491218262308722,0.09283857570232713,-51.20945015477542,93.04069907533318
0.8689004143746881,0.09154136837259852,-50.94060597329151,91.35220554785678
0.8891397050194614,0.09178698733790294,-50.85120837769881,88.93727837156416
0.9098504293049913,0.09105152583507189,-50.49801224635672,88.96126600803859
0.9310435683314338,0.09266847249991858,-50.51097165725147,88.12094784155988
0.9527303589816241,0.0913175300899311,-50.13587022817205,91.70499951076113
0.9749222998790228,0.09267888541698305,-50.06585281839408,89.71587456460247
0.9976311574844394,0.09315232106194039,-49.96912642624465,90.9516594869782
1.020868972334765,0.09123683264400223,-49.4760922506799,89.02620628659832
1.04464806542702,0.0906049814245327,-49.74931138144677,90.47143229139085
1.068981044751116,0.09270113564604249,-49.10886020937684,90.98484217592819
1.093880811974776,0.09339988087135467,-49.16390840146892,88.0846289903123
1.11936056928417,0.0912742770585674,-48.69306656970183,90.0961356749003
1.145433826383887,0.0920179768982845,-48.5983942744918,90.03001116344947
1.172114407659961,0.09120269428146817,-48.53942278247626,88.25527768273946
1.199416459509745,0.09104084150890726,-48.15724659875686,90.9961937969335
1.227354457842516,0.09253788026336365,-47.84257320288815,89.5951677238572
1.255943215754791,0.09243198940637154,-47.49037227979777,87.52522473842033
1.285197891384432,0.09063542262316003,-47.53294181214691,89.72007809404278
1.315133995947691,0.09113644083914713,-47.49679255547718,90.65505003049763
1.345767401963458,0.09067374028471263,-47.56214776965703,90.6917892424439
1.377114351669084,0.09073188149828418,-46.94648150036343,89.31275418624627
1.409191465632228,0.09025899109732399,-46.6368845249912,90.90955425020739
1.442015751563303,0.09068123428895353,-46.36451438501945,88.78319788845771
1.475604613333193,0.09143745849014193,-46.12424856275038,88.07073591364326
1.50997586020101,0.09223031758013658,-46.10130268768088,89.64416851014943
1.545147716256796,0.09202121902489362,-45.93106618888525,89.6471133946124
1.58113883008419,0.09000184209938847,-45.61106560327331,89.92313920045109
1.617968284648142,0.09205422027068172,-45.46960128881271,88.39859488206224
1.655655607412957,0.09338336326890075,-45.35884003598919,90.92287053018003
1.694220780696014,0.09156931553749173,-45.12514514262757,87.49776625783147
1.733684252262659,0.09101977466810739,-45.03550349782807,88.26864014176499
1.774066946167878,0.09230041356351934,-44.91677335889266,89.51362475112865
1.815390273850509,0.09208519432779591,-44.70126039403332,88.80809220237335
1.857676145485864,0.09105897640704155,-44.38710311094852,90.69399778668742
1.900946981602806,0.09168987563556198,-44.0977118690835,89.44785589118419
1.945225724971404,0.09120141642574521,-44.06080894932535,88.90022655781398
1.990535852767489,0.09184794747617592,-43.92117180950878,89.46332028689146
2.036901389020565,0.09275369514568529,-43.57405564630567,91.60925951815724
2.084346917351677,0.09159881825428998,-43.53373680193256,90.68795639273536
2.132897594007965,0.09193033251611735,-42.99482557428247,89.06579791694938
2.182579161200833,0.09021396454866201,-43.00221044799503,89.61473258549046
2.233417960754817,0.09138914477852084,-42.84860495350031,89.43891652636201
2.285440948074376,0.09221252775422914,-42.42974214399216,89.70294751092456
2.338675706435993,0.09124192206472399,-42.17914937210847,88.7767167127874
2.393150461613195,0.09191009175097202,-41.91086697786754,89.96094806260889
2.448894096842233,0.09210878549591324,-41.9048767522484,89.58365751212023
2.505936168136363,0.09145574942046467,-41.65840717100685,89.325170421412
2.564306919956827,0.09034935786312032,-41.54250969360149,88.95353509680263
2.624037301248861,0.09325555820006055,-41.26096176477512,88.40017635599838
2.685158981851264,0.09139092834073503,-41.19012681449506,88.26697202663033
2.747704369288121,0.09196876172905995,-40.88926768735555,88.85475424329601
2.811706625951746,0.09027335787603094,-40.69822654590205,89.03329566785739
2.877199686685783,0.09171103118156446,-40.38180759440228,89.22825300844978
2.944218276777945,0.09139291326146193,-40.33426817186283,89.50693530554013
3.012797930371787,0.09057831645995226,-40.16924602422193,88.15268139086126
3.082975009307412,0.08944180940495047,-39.92869266478315,89.75990113839028
3.154786722400965,0.09099250571389328,-39.64632398530767,88.87539953714659
3.228271145173278,0.09245908149420944,-39.49299016358979,88.50050454776624
3.303467240037979,0.09024430937161701,-39.31139726652749,88.82161400664347
3.380414876959909,0.09012860467414976,-39.09943123071032,89.26807424158659
3.459154854594681,0.09223079249571176,-38.89206030300952,89.16408538735237
3.53972892192069,0.09153693197012099,-38.83855744015963,89.46105368085867
3.622179800374949,0.09165858173172847,-38.62019212951675,89.054517166203
3.706551206504589,0.09272242264337217,-38.34138420520418,88.77046251058542
3.792887875145918,0.09189606296519182,-38.19716860393,88.62422635528617
3.88123558314346,0.09082042005660616,-38.06128661755294,88.64631569795014
3.971641173621407,0.09177592338034371,-37.8989566623283,88.58086193383969
4.064152580820497,0.09141556101398814,-37.62001314696109,88.52771162337044
4.158818855513355,0.09196982974694479,-37.47105957251945,88.96449380638609
4.255690191011884,0.09245623974985667,-37.22457761478479,88.93521286124195
4.354817949780402,0.0910105071860178,-36.91857674034441,88.79772313116882
4.45625469066873,0.09198117041842249,-36.78927259867066,89.03502655857589
4.560054196779548,0.09066220374075459,-36.64429494144419,88.15816642126811
4.666271503984958,0.09170627743691941,-36.36107990198609,88.77337783087897
4.774962930107179,0.09281844181785559,-36.14676313868199,88.52114139496665
4.886186104779055,0.09117233993520614,-36.09544532556563,88.68912183219757
5,0.0904303804636697,-35.75279327861485,88.6203333730036
5.116464961403773,0.09141160585939334,-35.64655328284428,88.61657614878106
5.235642740254498,0.09208143617160658,-35.44413868291362,87.99294988448599
5.357596526188035,0.09134511128582462,-35.32205856538152,88.34274502981202
5.482390980715921,0.09180955039921704,-35.08514586954207,88.56930899670461
5.610092271509815,0.09159386472592741,-34.77187819730632,88.58255619684491
5.740768107484409,0.09166501439941305,-34.54285709041907,88.05838387249965
5.87448777469764,0.09171357756638007,-34.48044346005631,88.33516472544939
6.011322173087059,0.09127354906008198,-34.28699898728686,88.45479464067569
6.151343854061906,0.09052690382453876,-34.11614496236043,88.47852303517442
6.294627058970831,0.09137281940212155,-33.83507728458298,88.59027780004766
6.441247758465662,0.0920214937302407,-33.67410594932042,87.77128967548565
6.59128369278203,0.09227694068656116,-33.40450589393899,88.34696266591148
6.744814412958266,0.09200549541446312,-33.24128100714263,88.16716230403142
6.901921323014419,0.09063276326556632,-33.02766307177436,88.40054376857006
7.062687723113763,0.09114735221069396,-32.93691458286341,88.68547263982914
7.227198853729632,0.09211590517272453,-32.64036888335036,88.24600234624421
7.395541940841036,0.09146636603276394,-32.44865486698301,87.97062903250105
7.567806242181036,0.09190671509983649,-32.21028258117453,87.92298462552438
7.744083094562398,0.09252942974220474,-32.08758610852885,88.10090517562924
7.924465962305563,0.09154712736300626,-31.97339946705577,88.27091497201548
8.109050486794649,0.0907911135420193,-31.64807014714847,88.21467460334618
8.2979345371878,0.09122497417892111,-31.45361693648879,87.81728106829284
8.491218262308713,0.09125705459410728,-31.27528725440315,87.76004419930649
8.689004143746873,0.09195638142838389,-31.08242739689397,87.86645350204788
8.891397050194614,0.08986054336714769,-30.8829583915213,87.80924423237558
9.098504293049913,0.09145921030288641,-30.74419100207659,87.98774963148703
9.310435683314328,0.09172533189565039,-30.51092207703165,88.03141215247673
9.527303589816231,0.09194478760172513,-30.34454582270087,87.86886596344192
9.749222998790229,0.09244949942636403,-30.18522784164691,87.79044368973558
9.976311574844395,0.09079731965311347,-29.89419159453588,87.62468415663834
10.20868972334764,0.09091727878842701,-29.73159736677815,87.74205782918825
10.44648065427019,0.09213217551145127,-29.52176476720709,87.52093959211413
10.68981044751116,0.09332842133646502,-29.31078774158421,87.47550511351628
10.93880811974776,0.09123413779441965,-29.16162645827916,87.3632265309309
11.19360569284169,0.09019299314072098,-28.94027197205364,87.40476546594275
11.45433826383886,0.09125370381917965,-28.74508557299509,87.34731472003699
11.72114407659961,0.09130323138428706,-28.53912859915759,87.24986704209071
11.99416459509745,0.089724281192332,-28.36198000815576,87.25447259720499
12.27354457842514,0.09038704222388494,-28.17704149006599,87.00085744501558
12.5594321575479,0.09100520568297224,-27.95737437250482,87.22923711573881
12.85197891384432,0.09164990877876206,-27.78461281933807,86.90567503072833
13.15133995947691,0.09059455226123284,-27.5702278817285,87.02753862775133
13.45767401963457,0.09086469662098617,-27.36236428238835,86.82470460591583
13.77114351669083,0.09101163668586022,-27.183153569683,86.84305918809227
14.09191465632227,0.09157924886282794,-26.98288077735776,86.80706351786637
14.42015751563303,0.09006250335534993,-26.73668049815241,86.78729839086805
14.75604613333192,0.09083846982175434,-26.55059797298333,86.54720438172052
15.09975860201008,0.09179830754266399,-26.39596159883738,86.86209320305008
15.45147716256796,0.09056269309692686,-26.15542608436168,86.55649029880669
15.8113883008419,0.09136835653024235,-25.99162513212356,86.56803304618369
16.17968284648141,0.09102573946235942,-25.75809630972363,86.27214542235208
16.55655607412955,0.09032498483467247,-25.53992041364047,86.34542596938411
16.94220780696014,0.09098380733474978,-25.34612558332745,86.33763983499651
17.33684252262658,0.09164701643416427,-25.15724163696762,86.11040658043441
17.74066946167877,0.09061156033971943,-24.97330619073701,86.10787279209529
18.15390273850507,0.0898297070149341,-24.76361327196421,86.02542870871383
18.57676145485864,0.08999254760295389,-24.56546035441758,86.13330313245118
19.00946981602806,0.08947342007851104,-24.36109897900502,85.72982504379473
19.45225724971402,0.09085331315574512,-24.15688280771195,85.8918912058619
