#Digilent WaveForms Network Analyzer - Bode
#Device Name: Discovery2
#Serial Number: SN:210321AFD7CC
#Date Time: 2020-11-21 02:03:50.431
#Start: 0.05 Hz
#Stop: 5000 Hz
#Steps: 501
#Wavegen: Wavegen1
#Amplification: 1 X
#Settle: 10 ms
#MinPeriods: 16 
#Channel: Channel 1
#Range: 54.3664 V
#Offset: 0.00145283 V
#Relative: no
#Channel: Channel 2
#Range: 54.9218 V
#Offset: 0.00173285 V
#Relative: yes

Frequency (Hz),Channel 1 Magnitude (dB),Channel 2 Magnitude (dB),Channel 2 Phase (deg)
0.05,0.08970260445440689,-45.16318509668406,88.80437807290883
0.05116464961403768,0.0904902236524726,-44.91285052700646,89.67396427822896
0.05235642740254492,0.09009761087245979,-44.97880480141988,88.7859333732568
0.05357596526188035,0.09115515203253693,-45.12336067597797,91.27034729882192
0.05482390980715926,0.09238942752782597,-44.71772755770623,89.73926759129397
0.05610092271509815,0.08912500054273133,-44.58186050479399,89.4304582932435
0.0574076810748442,0.09002450959806332,-43.93178675304363,90.17344553115724
0.05874487774697651,0.08976939749796861,-43.63827468733312,89.78613407586873
0.06011322173087066,0.08943582178205485,-43.60368029345268,89.04700866335983
0.06151343854061905,0.08761356062024662,-43.13645327486013,89.82143423543852
0.06294627058970831,0.09072673496654213,-43.29412926736909,89.14371108323613
0.06441247758465674,0.0889211464733425,-43.27317553817794,89.79441999556367
0.06591283692782038,0.08935177729184585,-43.1464706220785,89.35108304163029
0.06744814412958267,0.09012681756425422,-43.00241970305903,89.47478206647693
0.06901921323014433,0.08911751516404168,-42.57608460929248,88.63750569237754
0.07062687723113778,0.09040954636243055,-42.29205540075998,88.89813426655867
0.0722719885372964,0.08838671257610764,-42.23838586632736,88.41760684874845
0.07395541940841036,0.08806599125875178,-42.10923839370966,88.29988795270945
0.07567806242181035,0.08874493456341723,-41.72688899112452,88.81885091444461
0.07744083094562414,0.0898586106129996,-41.45900584034915,89.47073337693135
0.0792446596230557,0.09030897710696498,-41.39174202003242,89.89565820986672
0.08109050486794649,0.0902213664686535,-41.06698748308012,90.18313386091506
0.08297934537187816,0.08983518132594043,-40.5733948231353,89.11609834960319
0.08491218262308729,0.09127600103651662,-40.54832522945068,89.30665517760423
0.08689004143746883,0.08984246391279009,-40.20341148966911,89.82140007586557
0.08891397050194615,0.09131624454499179,-40.20909385546975,89.97731958480757
0.09098504293049914,0.08970908801532379,-39.89589194975724,89.76827046047224
0.09310435683314347,0.09125762841499382,-39.67346508113857,89.8557239491125
0.09527303589816243,0.09069015171712044,-39.65373187469091,89.35354454507015
0.09749222998790227,0.08896740773108752,-39.39120493720363,88.90359122698973
0.09976311574844415,0.08911882885943238,-39.31504513921156,89.40145096623149
0.1020868972334766,0.08997970446026556,-39.04178676454423,88.77164556827753
0.104464806542702,0.09205998591366746,-38.79194176026025,89.34477175688112
0.1068981044751116,0.08997261930592251,-38.75803001621278,89.80495972761317
0.1093880811974776,0.09235381139931423,-38.42268963663749,88.97602954852724
0.1119360569284171,0.09036240127951717,-38.28680468888322,88.90267276995633
0.1145433826383885,0.08998175392279315,-38.20760674423795,90.32170617606397
0.1172114407659961,0.09043061529177927,-38.03541263771594,89.64917210507463
0.1199416459509745,0.08963851251810186,-37.81365537436597,88.99506677757851
0.1227354457842514,0.08944283725750352,-37.66723251799975,88.84542311605804
0.1255943215754789,0.08880790245553566,-37.49220378585954,89.11485909148615
0.1285197891384432,0.09015173491245446,-37.08900783457774,89.15555443869255
0.1315133995947691,0.09123973815622932,-36.83592269539177,89.07892851499074
0.1345767401963457,0.08909899129151724,-36.68211914989372,88.59984580854902
0.1377114351669082,0.09029469518303289,-36.46578107441006,89.04712104541619
0.1409191465632227,0.09083448462505078,-36.39113921722498,89.08886958999545
0.1442015751563303,0.09067176425092063,-36.24152551536248,89.25022053796151
0.1475604613333192,0.08978140033495344,-36.0605663923934,89.29210259837811
0.1509975860201007,0.0904784205604264,-35.89813637777158,89.66416032139159
0.1545147716256796,0.09053292826070811,-35.623940996905,88.69542548810207
0.158113883008419,0.0901895259947904,-35.39776452353274,89.00794165892493
0.1617968284648141,0.09208360188461248,-35.24819811663307,88.61635886779632
0.1655655607412954,0.08945648818655896,-34.9910667998112,88.91822114644214
0.1694220780696014,0.09233661206651576,-34.78280959844005,88.91748446434687
0.1733684252262658,0.09124236851479764,-34.58601930203421,88.71014308018749
0.1774066946167877,0.0892055301007655,-34.37140376979789,88.13707314699775
0.1815390273850505,0.09071899051943043,-34.2155713099987,88.55042760996818
0.1857676145485864,0.0914457796990578,-34.19171726080074,88.6304633415439
0.1900946981602806,0.08989115954812334,-33.85118151698962,88.69937584305423
0.1945225724971402,0.09136074575512673,-33.55143857567187,89.02710057009615
0.1990535852767485,0.09126706243066746,-33.30966945813624,88.44283814431569
0.2036901389020565,0.08958243451162415,-33.25161438347308,88.35149212474545
0.2084346917351678,0.09002981783775352,-32.98177753434045,88.4561770677273
0.2132897594007963,0.09133641782836444,-32.82824003188847,88.11388109248693
0.2182579161200828,0.09028787834325791,-32.60964547446462,88.70483852665313
0.2233417960754817,0.09071504527920356,-32.44269330549472,88.18102138672532
0.2285440948074376,0.09033572167023433,-32.27352756523264,88.22966303567301
0.2338675706435991,0.08982620308715314,-32.00977553412362,88.4161834341154
0.239315046161319,0.09169218785443797,-31.80451084013171,88.33262578188703
0.2448894096842233,0.09174950517153656,-31.64664160460666,88.31239391605027
0.2505936168136362,0.09093834473274284,-31.43936905136019,88.52277912389656
0.2564306919956824,0.0909338040627648,-31.22993500013946,88.02728067948721
0.2624037301248862,0.0915653275486346,-31.0211857814377,87.89813470212971
0.2685158981851266,0.09086756136071976,-30.86795718192267,88.09097341044429
0.2747704369288124,0.09128590162495243,-30.65934799736073,88.28093432410867
0.2811706625951745,0.09127395352912278,-30.46938748879889,88.25220519031495
0.2877199686685783,0.09079204617510771,-30.23692019772641,88.24272744587131
0.2944218276777948,0.09180636646727966,-30.07426957183349,87.81521947683837
0.3012797930371791,0.09177428299810222,-29.88097531198595,88.22658799198973
0.3082975009307411,0.09017402069247807,-29.69887609787127,87.98654227724137
0.3154786722400965,0.0923157921459264,-29.47878886250997,87.87225857964944
0.3228271145173282,0.09018494739067932,-29.29282700220741,87.80661365369281
0.3303467240037982,0.09080663589836016,-29.1250289025494,87.81459114079303
0.338041487695991,0.08985767203168031,-28.88774790994587,88.01918718347014
0.3459154854594682,0.09028570149059575,-28.68585685262248,87.79767229493984
0.3539728921920694,0.08994074736651815,-28.54166456021291,87.43746882764837
0.3622179800374946,0.09134482493390453,-28.2750349574104,87.47722880162999
0.3706551206504581,0.09097714641639339,-28.16756891995771,87.52416683420157
0.3792887875145918,0.09103191004255662,-27.91373411444363,87.24570762036213
0.3881235583143456,0.09095770244244684,-27.71996973936151,87.3734969125085
0.3971641173621403,0.09020573959030312,-27.52762205989456,87.39101993764866
0.4064152580820497,0.08973246550444874,-27.30179677237242,87.29726223503474
0.4158818855513354,0.09059864073061399,-27.12502399507362,87.2349270962936
0.425569019101188,0.09149671358523488,-26.93793382220991,87.29235279863923
0.4354817949780398,0.0912505015943024,-26.69639781699891,87.17729528308301
0.4456254690668721,0.08965170090158568,-26.5181689675604,87.1464732390145
0.4560054196779548,0.08949699323955147,-26.30133592306485,86.99725784004823
0.4666271503984952,0.09151550560122713,-26.11253879225645,87.02473912152176
0.4774962930107175,0.09048758491299291,-25.90198209072893,86.78984005985845
0.4886186104779056,0.09026313369566602,-25.69082205973466,86.76196429796508
0.5,0.09006542378636409,-25.49565865180492,86.5767234865348
0.5116464961403768,0.08895290656403684,-25.29503807236841,86.62898509963236
0.5235642740254492,0.09059753200646925,-25.09099356682479,86.51721941970955
0.535759652618803,0.09087159945262613,-24.90909683410987,86.44843868614538
0.5482390980715925,0.09123993163519165,-24.71930225325175,86.29998995566314
0.5610092271509816,0.09036465862397622,-24.51151050508155,86.43472075110289
0.5740768107484409,0.09196759221996814,-24.30588072055834,86.3446490427157
0.5874487774697645,0.09089745806773851,-24.13830315678405,86.10123420734806
0.6011322173087066,0.09102951418422746,-23.90024489908299,85.96133100709983
0.6151343854061906,0.08984849065319048,-23.71794889819362,86.0150158349681
0.6294627058970831,0.09056940573174967,-23.51900058631591,85.9267925646391
0.6441247758465668,0.0909978074357002,-23.32571875221774,85.82276916463198
0.6591283692782037,0.09029371760029853,-23.14499417714377,85.75268786800171
0.6744814412958267,0.09089728689955737,-22.94126854941873,85.65830292389246
0.6901921323014419,0.089443373391593,-22.72385207677549,85.46990622136747
0.7062687723113771,0.09063141570270751,-22.55632925887097,85.44360308779032
0.7227198853729639,0.08988958662276408,-22.34395566495176,85.34008026496861
0.7395541940841036,0.08973769643799182,-22.15569270090581,85.20784038394544
0.7567806242181035,0.08829398320563038,-21.96520142942129,85.23338944484253
0.7744083094562405,0.09121085286569794,-21.77140323533856,85.08902213271115
0.7924465962305571,0.08901617530751352,-21.59203970392544,84.97441984653449
0.8109050486794649,0.0916251872807556,-21.38563857887132,84.86953727975327
0.8297934537187798,0.08903239481391094,-21.18563020293212,84.66212047033153
0.8491218262308722,0.09045283363894113,-20.98975513643044,84.64897280698986
0.8689004143746881,0.08957069233586655,-20.7938812259067,84.4700954760996
0.8891397050194614,0.08984353148170206,-20.6092769703123,84.33863651452657
0.9098504293049913,0.09049949488141748,-20.41344579381893,84.24269726469083
0.9310435683314338,0.09131471766820375,-20.2271677210669,84.18325255980949
0.9527303589816241,0.0904379578959974,-20.03066999140263,84.00402439837637
0.9749222998790228,0.08913550680762947,-19.82838394460194,83.82288624455975
0.9976311574844394,0.08973077561079053,-19.63874495425434,83.78159848970415
1.020868972334765,0.08971715819728523,-19.44240517889735,83.59659105412618
1.04464806542702,0.08822589539237723,-19.25256813003707,83.4900443778327
1.068981044751116,0.08941572147616358,-19.06175208874138,83.31495276923982
1.093880811974776,0.08824945765943644,-18.86584446170526,83.18286077783286
1.11936056928417,0.09062306953912337,-18.67346932840933,82.97881266817311
1.145433826383887,0.08992130853361885,-18.47617010010218,82.86844490382528
1.172114407659961,0.09014407653373051,-18.28431464357702,82.68265298045536
1.199416459509745,0.08876514663128085,-18.09412122169911,82.54692061533214
1.227354457842516,0.08928271909851124,-17.90418819355503,82.34643347446111
1.255943215754791,0.08849516547300457,-17.71412808738641,82.26721967144941
1.285197891384432,0.08992126767989603,-17.53031625399586,82.01077238645254
1.315133995947691,0.08861075996472084,-17.33649738519621,81.85358477993925
1.345767401963458,0.08924801037397138,-17.15184534022351,81.74099255198652
1.377114351669084,0.08695331110873111,-16.95554746376116,81.51644793641988
1.409191465632228,0.09027096962436602,-16.76804791589788,81.33813805874385
1.442015751563303,0.08847298535916581,-16.57501107481077,81.13555166236834
1.475604613333193,0.08837168983946178,-16.39268435211409,80.88153114044
1.50997586020101,0.08902029830453614,-16.199764681623,80.69384000127866
1.545147716256796,0.08589221858653023,-16.00607867142647,80.60545606001637
1.58113883008419,0.08960137418541068,-15.80649266585558,80.3118341383955
1.617968284648142,0.08819715333944628,-15.61755583035159,80.08539688728604
1.655655607412957,0.0876654832411366,-15.422575795803,79.84672816469845
1.694220780696014,0.08863351062926376,-15.22607731322887,79.68158613136495
1.733684252262659,0.08782444026259648,-15.03029046319958,79.37616579387156
1.774066946167878,0.08790081062875513,-14.83604047089201,79.17931305596051
1.815390273850509,0.08766977662898383,-14.6412953789879,78.9538918944595
1.857676145485864,0.08757825767121191,-14.45087169057268,78.73167885426835
1.900946981602806,0.08649357123772462,-14.25255694536579,78.49908963450284
1.945225724971404,0.08749006910575938,-14.07396932390128,78.1907344696761
1.990535852767489,0.08696526698929412,-13.87983953865433,77.94617585614438
2.036901389020565,0.08759122562179063,-13.68225064361624,77.66997496123818
2.084346917351677,0.08669789326503177,-13.494773140302,77.45435421872523
2.132897594007965,0.0868051817129198,-13.29371988039238,77.13589089255277
2.182579161200833,0.08718630470613768,-13.10795367563137,76.84541793669662
2.233417960754817,0.08653111385579886,-12.91369366425686,76.55238584052489
2.285440948074376,0.08620103764491865,-12.72799486147233,76.27308052075824
2.338675706435993,0.08643956682166218,-12.53722314215262,75.98553226684655
2.393150461613195,0.08634361700399494,-12.35282616873247,75.66881354645179
2.448894096842233,0.08636972474217891,-12.15949012672261,75.37418755688509
2.505936168136363,0.08512901331112899,-11.9735775117598,75.07916583829025
2.564306919956827,0.08604794282404821,-11.78832573775534,74.74677557799225
2.624037301248861,0.08521127638625917,-11.59988732515182,74.40159697127206
2.685158981851264,0.08360415790777974,-11.40653046577686,74.01250736492113
2.747704369288121,0.08497432068682656,-11.22245592952738,73.70396402615772
2.811706625951746,0.08456806150746941,-11.03818920901098,73.38322878509827
2.877199686685783,0.08267278928148655,-10.85187211853085,73.01829274024783
2.944218276777945,0.08429950019656621,-10.67418145282663,72.64601062303259
3.012797930371787,0.08293061951204854,-10.48843939403858,72.26075156644401
3.082975009307412,0.08284743507540238,-10.30960553493883,71.90463972507094
3.154786722400965,0.0821592803030541,-10.13352920803192,71.53780935259066
3.228271145173278,0.08277086922972245,-9.955631797920518,71.13561893432821
3.303467240037979,0.08281419826731584,-9.779021519837043,70.69861442971656
3.380414876959909,0.08228863915055327,-9.609765791123166,70.30991980120422
3.459154854594681,0.08037335513234393,-9.430989134720297,69.89459145229841
3.53972892192069,0.08104612728821484,-9.261575562252318,69.46098830826656
3.622179800374949,0.08058109097299074,-9.081260134518613,69.02784460957972
3.706551206504589,0.07874141434870105,-8.916063913188104,68.62596593204258
3.792887875145918,0.07857705179334074,-8.739722497180384,68.19146843784793
3.88123558314346,0.07874850561978937,-8.573610013723437,67.6860826721705
3.971641173621407,0.07908785922495791,-8.402117679318108,67.24704494411954
4.064152580820497,0.07826883225313783,-8.227680921883637,66.78172688683918
4.158818855513355,0.0775601859552844,-8.062901984784791,66.31704470505208
4.255690191011884,0.07581788380189647,-7.890765332435693,65.82678402581587
4.354817949780402,0.07767544622141831,-7.729259060261078,65.33376891316273
4.45625469066873,0.07439684882801241,-7.563385855189935,64.8469656777951
4.560054196779548,0.07607988368264199,-7.400743845753718,64.33295038224199
4.666271503984958,0.07475110457493554,-7.237069601567343,63.80267540009885
4.774962930107179,0.07586455821687373,-7.078690646850512,63.31588805330576
4.886186104779055,0.07340886242113492,-6.913935268454569,62.78715277843077
5,0.07207237536998536,-6.756691224700323,62.25680007194784
5.116464961403773,0.07146954875900241,-6.59993400634291,61.70313540537458
5.235642740254498,0.06984560626793392,-6.440878164651722,61.16504049410935
5.357596526188035,0.07205179706149156,-6.293402457669605,60.61168925603926
5.482390980715921,0.07084602832522371,-6.138852931172534,60.04724108790334
5.610092271509815,0.07011547102426499,-5.990842051234378,59.49485260782807
5.740768107484409,0.06938578966641329,-5.83903189256162,58.92572519862124
5.87448777469764,0.06706609135570646,-5.697096601300085,58.34519752809114
6.011322173087059,0.06656231958599867,-5.550340265410934,57.74880333861302
6.151343854061906,0.06765147643164113,-5.411610945093834,57.16017805276476
6.294627058970831,0.06543392090539218,-5.269144425860731,56.55744368742286
6.441247758465662,0.06565587452914877,-5.134399896540089,55.96609058503386
6.59128369278203,0.06257479995114551,-4.994694924599698,55.36527601381195
6.744814412958266,0.06318450009175454,-4.861927468541945,54.76940009099119
6.901921323014419,0.06200345655426023,-4.732200255693079,54.12449498520374
7.062687723113763,0.06250872322119047,-4.603928548303447,53.5225051019135
7.227198853729632,0.06040374371968803,-4.473375445458216,52.87740508643853
7.395541940841036,0.05835432190820494,-4.346591242021364,52.2510353968823
7.567806242181036,0.05868848650563641,-4.22538794539907,51.60796286043384
7.744083094562398,0.05728442590414848,-4.102135018216624,50.96958297699452
7.924465962305563,0.05742592752996158,-3.981491788792017,50.32877529519465
8.109050486794649,0.05470929467801742,-3.863663964313929,49.68807660345817
8.2979345371878,0.05514028529396135,-3.750467006325136,49.05358693689202
8.491218262308713,0.05367785289267974,-3.636527223034775,48.40170306871121
8.689004143746873,0.05288355870578357,-3.52711387586972,47.74765880709472
8.891397050194614,0.05289235071710695,-3.417444436439456,47.09836919850669
9.098504293049913,0.04917047566955008,-3.309572327438771,46.45705663771508
9.310435683314328,0.05045552405335609,-3.209425555595062,45.781965819873
9.527303589816231,0.04788704876922349,-3.101593549393502,45.13732945635547
9.749222998790229,0.04812016369744223,-3.007418187949633,44.49735068526198
9.976311574844395,0.04738998313358199,-2.906296108640333,43.82241960740501
10.20868972334764,0.04575921852993732,-2.812415319416522,43.1790597588131
10.44648065427019,0.04485751974211544,-2.720283743134517,42.52999090419746
10.68981044751116,0.04382663398542371,-2.629705227862149,41.87657019014573
10.93880811974776,0.04403984897894764,-2.54256401743702,41.2179943207212
11.19360569284169,0.04146615404876389,-2.45618689125685,40.57305475858998
11.45433826383886,0.04205778849524194,-2.371561881545574,39.93223155110557
11.72114407659961,0.03950853694206422,-2.288892910701593,39.27674076115795
11.99416459509745,0.0404506768712264,-2.211263113994407,38.63724119984357
12.27354457842514,0.03854545134588726,-2.132752404621433,37.98888186522376
12.5594321575479,0.03882733803284366,-2.060904811834537,37.37790939107672
12.85197891384432,0.0361465231163668,-1.986081155343816,36.74274354762619
13.15133995947691,0.03507214302538054,-1.912977028186565,36.11471347263489
13.45767401963457,0.0349892884492997,-1.846403473657536,35.49269184858403
13.77114351669083,0.03337109396584843,-1.777978552857334,34.89392360247621
14.09191465632227,0.0329686557614727,-1.713273527575293,34.25817168660481
14.42015751563303,0.03165805146151221,-1.650789471799975,33.63890831390897
14.75604613333192,0.02992576179397576,-1.588627939989333,33.07048726421029
15.09975860201008,0.02901119846838175,-1.530608140585139,32.44211949513843
15.45147716256796,0.02866272415199796,-1.473496928515532,31.85365418122778
15.8113883008419,0.02780545618813942,-1.416311279558619,31.2781031250995
16.17968284648141,0.02889786038672975,-1.365407320886794,30.69030099962151
16.55655607412955,0.02700894213822467,-1.313087638710286,30.12868367350632
16.94220780696014,0.02754996227953057,-1.264231452876349,29.54020139332427
17.33684252262658,0.02598293191494785,-1.213935608138921,28.98930718961689
17.74066946167877,0.02591323103730543,-1.168726441924081,28.41999466781537
18.15390273850507,0.0260397009108237,-1.123047243135572,27.8822724891818
18.57676145485864,0.02470429032604795,-1.078913350569245,27.35493467901951
19.00946981602806,0.02359997607171031,-1.035906899894476,26.81054922285553
19.45225724971402,0.02468993593680998,-0.9983592720934281,26.28633738506005
