#Digilent WaveForms Network Analyzer - Bode
#Device Name: Discovery2
#Serial Number: SN:210321AFD7CC
#Date Time: 2020-11-19 16:36:31.625
#Start: 1 Hz
#Stop: 2e+06 Hz
#Steps: 201
#Wavegen: Wavegen1
#Amplification: 1 X
#Settle: 10 ms
#MinPeriods: 16 
#Channel: Channel 1
#Range: 54.3664 V
#Offset: 0.00145283 V
#Relative: no
#Channel: Channel 2
#Range: 54.9218 V
#Offset: 0.00173285 V
#Relative: yes

Frequency (Hz),Channel 1 Magnitude (dB),Channel 2 Magnitude (dB),Channel 2 Phase (deg)
1.000000000000002,0.09327830336710871,-0.07047118768653106,-5.981470225021496
1.07523935078847,0.09429712941558682,-0.07864754572464584,-6.414401311987476
1.156139661484011,0.09394494551175588,-0.08921106619224811,-6.884561496564871
1.243126859034867,0.0918938550097281,-0.09570678978567598,-7.401169879593752
1.336658916856357,0.09270867850168478,-0.1086299982596397,-7.942735484334335
1.437228265986249,0.09163479149852355,-0.120949540482083,-8.536914276441244
1.54536438765389,0.092837940209157,-0.137726811739027,-9.15704128854054
1.661636600912587,0.09333227078540814,-0.1554067297294802,-9.837228231181243
1.786657060011607,0.09112243374770561,-0.1739862153385328,-10.55605979638681
1.921083977288517,0.09287066192275228,-0.1985686936914578,-11.32261767705921
2.065625088549833,0.09232624304447364,-0.2256778099399427,-12.14584769026863
2.221041379184694,0.09107239426425368,-0.2558522704922754,-13.02143292163913
2.388151090628878,0.08951987264869747,-0.2892862163957119,-13.95956747067233
2.567834028272562,0.09075194608695727,-0.3307528980212396,-14.9539026667159
2.761036193492331,0.08761165825562955,-0.3745177468319342,-16.01483394761178
2.968774764194157,0.08695442143420927,-0.4270710837252281,-17.15260793722342
3.192143450089312,0.08673011661663456,-0.4867490324484325,-18.35188763701353
3.432318250897692,0.08390472780150174,-0.5531160322452818,-19.61456187497762
3.690563647794652,0.083145895617234,-0.6302878074353313,-20.96551479569303
3.968239260698241,0.08222455618299326,-0.7170836494475106,-22.39033992798206
4.266807006446488,0.08113731189687143,-0.8167973440130119,-23.86650615988779
4.587838795551217,0.07846340264261432,-0.9274370887166541,-25.43089812525752
4.933024808050637,0.07730205209065985,-1.052827196206788,-27.08550028604158
5.304182392031773,0.07400142068681502,-1.192189259531219,-28.77198740114966
5.703265631671878,0.07351278549358484,-1.34998449226651,-30.54928243542514
6.132375635173052,0.0689514889571422,-1.519043946465341,-32.39276011555943
6.593771596754491,0.06644797536371568,-1.712570250306545,-34.29173366737402
7.089882690941738,0.06343135299963726,-1.925990586085619,-36.24495663844798
7.623320861774606,0.0621221715796636,-2.156753575118994,-38.2228410128445
8.196894574266711,0.05843428190805304,-2.40865045961691,-40.2367991654468
8.813623600516053,0.05395782842015882,-2.680996685208438,-42.28544593249903
9.476754918312821,0.0513778679202774,-2.979874754058769,-44.33796122530483
10.1897798059481,0.04951261826241163,-3.300524064013289,-46.39904751193449
10.95645222322507,0.04689620581590358,-3.641613557160728,-48.43916086550951
11.78080857544542,0.04304282980002627,-4.006306449862859,-50.47123704718884
12.66718896442515,0.04032477283252901,-4.389928439276842,-52.487774780036
13.62026003842331,0.03629809436625894,-4.795961836060674,-54.4299449644102
14.64503956128445,0.03446987042780409,-5.221894425460399,-56.34331200233521
15.74692283014689,0.03038742649077142,-5.665741816409843,-58.21811059945308
16.93171108080329,0.02941443944684964,-6.131590203782634,-60.02682898950187
18.20564203026083,0.0262370493833244,-6.615395169194757,-61.74608435478408
19.5754227173049,0.02527239949376614,-7.115842983686194,-63.43506887534626
21.04826481396475,0.02402792306572804,-7.630605118935345,-65.03916323560043
22.63192259379126,0.02104900241935841,-8.154016744603933,-66.54580600770291
24.33473375684297,0.01904825552936155,-8.691178139292411,-68.0269400085284
26.16566332631805,0.01887737524410556,-9.230109347950442,-69.37183785035724
28.1343508479399,0.01732006645591285,-9.782618203898066,-70.68516643663297
30.25116114059388,0.01529332781862954,-10.34135923964415,-71.94855810388263
32.52723886540949,0.01424574876403202,-10.91215348456031,-73.10688224906221
34.97456720058433,0.0134912700688447,-11.49054209687958,-74.15093508556095
37.60603093086402,0.01185128252307572,-12.08675713996966,-75.19529390895003
40.43548428383326,0.01184559206277117,-12.68001032329234,-76.17972316429505
43.47782387016618,0.01101043999183843,-13.28763906661221,-77.02474911542396
46.74906711185293,0.01101177557561493,-13.89152056940859,-77.95123582816325
50.26643657131526,0.008301185341716913,-14.4876682673255,-78.72308803619418
54.04845062539072,0.009503995094940314,-15.14131210197359,-79.38618547848937
58.1150209615678,-0.001396497560762523,-15.71185795185318,-80.52820491225445
62.48755740977424,-0.002543146183073529,-16.34321857917771,-81.09377481865712
67.1890806616429,0.01140108963509688,-16.96542399914224,-81.18718627029085
72.24434347069894,0.00567062316026156,-17.49627157094199,-81.93382179542151
77.67996097157356,0.005809904439618568,-18.14356298215752,-82.35735590196342
83.52455080434811,0.00347459980413444,-18.73848138474045,-82.94937079011649
89.80888378176586,0.004252122824436076,-19.34370230070753,-83.36337891568209
96.56604589254289,0.000210186837915586,-19.9677222931794,-83.88102591630545
103.8316124937074,0.00156458104874887,-20.57809134079582,-84.19303287958826
111.6438356090538,8.253640133608735e-05,-21.17887223204503,-84.54000850512881
120.0438453198136,-0.0007486668322060513,-21.78690899900359,-84.95319357221619
129.0758663078274,-0.001537069142451227,-22.42033844333655,-85.10445959143588
138.7874506912877,-0.007181583043671527,-23.07506076698146,-85.5691312457427
149.2297283788867,-0.006066483423461239,-23.66413759934499,-85.68390179327957
160.4576762604536,-0.00729809686213877,-24.32368434744052,-85.99378965405913
172.5304076513162,-0.01210392488706254,-24.96442992663902,-86.3463516256606
185.5114835142714,-0.0136938965790976,-25.57834439024233,-86.4880037893672
199.4692470976907,-0.01636518807598754,-26.29019300010059,-86.70482601227143
214.4771837515857,-0.01895898661154537,-26.90931772316786,-86.47038892339447
230.6143078159939,-0.02342213484229801,-27.55348694310153,-86.71419887840403
247.9655786186015,-0.02941368580318532,-28.17765730954207,-87.03815982561073
266.6223477717518,-0.03351275026231971,-28.75741150455809,-86.99008945421666
286.6828401237959,-0.04014213770603572,-29.4603689936193,-87.23670811152772
308.2526708969047,-0.04760849921175872,-30.16163254865965,-87.22007695750705
331.4454017339991,-0.05340400510355119,-30.8051555016262,-87.13846657364067
356.3831385822885,-0.06429293852098,-31.41180503326629,-87.06333761601505
383.1971745611761,-0.07268376895292561,-32.09019536411839,-86.63302256480739
412.028681199135,-0.08315698486545908,-32.75542059086646,-86.93238978241629
443.0294516787861,-0.09638457900595304,-33.6148504685102,-86.74617131826633
476.3627000032699,-0.1081568722265248,-34.23498320891769,-86.6679268516892
512.2039202913571,-0.1239662087388667,-34.91787290180773,-86.51384207203512
550.7418107253886,-0.1421595730551152,-35.60431307642934,-85.7843641769586
592.1792670164316,-0.1601593571452317,-36.50675048923154,-84.36276963909123
636.7344506171399,-0.1803951998886155,-37.28059920120676,-83.61350039005148
684.6419373062247,-0.2014665308555174,-37.75350862948774,-82.48821922243869
736.1539521917055,-0.2277699182176304,-38.4704847982645,-81.08794757316718
791.5416976349734,-0.2525610445529551,-39.18875241418639,-82.25708414703305
851.0967810870324,-0.2815999511511113,-40.17773190947253,-80.62806730855247
915.1327503541745,-0.3098751717833843,-40.81161390167378,-75.68126962602054
983.9867443760887,-0.342160643666379,-41.36109356246635,-74.89557800919076
1058.021268207405,-0.3739713646653542,-42.25260995554553,-74.77376470299794
1137.626101547722,-0.4083558583207775,-42.60928824049444,-68.43290641370149
1223.220350868189,-0.4414478126973475,-43.47968312142385,-67.1583164126702
1315.254655938754,-0.4753741705110304,-44.37405081397092,-65.83630085759768
1414.213562373096,-0.5059769401267273,-44.87365253456738,-55.5464704279369
1520.618072682296,-0.5421384938205485,-43.59078751658664,-56.90513996543669
1635.028389268124,-0.5826864240976807,-47.080141031925,-57.47547176966305
1758.046863797374,-0.6108397160682137,-45.58804548574483,-50.31711404960268
1890.32116848519,-0.640898886665678,-46.49572910641247,-42.93640295889094
2032.547705983716,-0.6694512785712914,-46.01013215366529,-42.67055419889579
2185.475275828523,-0.6940282003824776,-46.11811684413018,-40.57432734843151
2349.909016746109,-0.7213389467697651,-46.92596533502052,-39.3892020045035
2526.714645578055,-0.7441075675812228,-45.94715322379213,-36.77203543371154
2716.823015139065,-0.7654170520698867,-46.12413288818426,-29.38821209094527
2921.235015005296,-0.7841209508832215,-46.06392852655812,-26.15276636659547
3141.026841034838,-0.7970554083710666,-47.03613841298874,-26.63580659998712
3377.355661363452,-0.8183021129812602,-46.7128815082872,-27.94690877193877
3631.465708706191,-0.8304720221346239,-46.92636655459037,-27.13210544810077
3904.694831039832,-0.8390703906382958,-47.06833887829352,-25.73171963943645
4198.48153515436,-0.8471568534497971,-46.34923548261906,-22.98684829562673
4514.372560156744,-0.8575171226289789,-47.32534982509281,-23.26159457901576
4854.031020800217,-0.8677051526423949,-46.4586427449717,-23.22060321682898
5219.245163512309,-0.8749071211170332,-47.7148068634936,-17.49303633864113
5611.937781220831,-0.874317803173808,-46.73570353819387,-19.6227466822807
6034.176336545169,-0.8782545593825193,-47.43903581129499,-16.63926159344821
6488.183846649962,-0.895075356830271,-47.31408911743563,-22.98271105314222
6976.350587068137,-0.8841224582230209,-47.9820674813983,-21.71890713745253
7501.246676111899,-0.8901444656951839,-47.70832343973205,-5.589978399092075
8065.635606126711,-0.9029940153946061,-47.21153006986042,-19.70948206065844
8672.488792828044,-0.8922051519386756,-47.46247764214797,-16.02537994418822
9325.001219320691,-0.8876296828078124,-47.84874797887526,-17.18260133076529
10026.60825716406,-0.8977404580272421,-47.28056585896353,-17.16353172677427
10781.00375304339,-0.8891446193208283,-47.27895762109387,-11.69666752890561
11592.15947627041,-0.8892677205609525,-48.46349325882426,-20.18658793577965
12464.34602950139,-0.8969565354214138,-49.4438442818339,-6.115563858406432
13402.1553327639,-0.9050650666149882,-48.48972616966919,-9.138064185562683
14410.52479916727,-0.9005001415953856,-48.3893290271139,-13.54691189647951
15494.76332957775,-0.9106965438056985,-47.84467457213136,-20.41526637019972
16660.57926311614,-0.8946144820519615,-49.9293314829645,-17.95062892268076
17914.11043063283,-0.8981476326053078,-50.18838134474269,-13.32172185785801
19261.95646938656,-0.9003053858895727,-48.86011555903873,-5.26524887993369
20711.21356905896,-0.8955629591864621,-49.79043511239411,-8.777668957518586
22269.51183203624,-0.896444623328237,-47.32068157734076,4.071426479022001
23945.05544465477,-0.8993329703574525,-47.12333643723731,-10.47556635816017
25746.66587090448,-0.9012315232983472,-48.38192605447551,-1.8746056233418
27683.82829599895,-0.9051437352031955,-48.61627278271386,-13.27601241412056
29766.74156432935,-0.9053229912652023,-47.26069956542588,-15.23520442490614
32006.37187471761,-0.9043150791493847,-47.07779400803852,-17.23299964803618
34414.51051566568,-0.8955490122823491,-47.85532600636139,-1.95795603412094
37003.83594456728,-0.9098760911786121,-50.4328535838778,-17.49946396393873
39787.98053771952,-0.9130217001504937,-47.99829553159596,8.519960744101304
42781.60236256175,-0.9229896494802668,-47.66488159862007,-0.6619734430195905
46000.46235001133,-0.9137587562347655,-48.20779013890877,-14.85297924021854
49461.50727319557,-0.9100608261101483,-49.94600513020351,-15.45174710079445
53182.95896944992,-0.9170479755125803,-46.5224492506148,-2.937421183126219
57184.41027532108,-0.9137978474788745,-48.12765831340727,-2.817681922613991
61486.92817965767,-0.912119803417867,-52.80756298555498,-6.554021022703836
66113.16473787233,-0.9163201480929105,-48.75991060127043,-9.878886540998423
71087.47633132093,-0.922963597074214,-47.42356428732591,-7.821482887240592
76436.05189968013,-0.9047674762926033,-48.57701747215204,24.2150232152966
82187.05082144574,-0.9166192308059417,-45.03252634731469,-5.752272050124496
88370.75116847022,-0.9184550433126816,-47.64705946913554,21.02537044212639
95019.70911507522,-0.9119002158453882,-47.47005660497972,-18.71768423845195
102168.9303410026,-0.9085526493626654,-48.07641957697717,9.958222077627717
109856.0543306119,-0.9149132682788775,-52.22388281697579,-22.80005993890657
118121.5525386298,-0.9263758758282504,-46.17927319931796,-9.436799352976436
127008.9414657624,-0.9105743322121919,-49.37239411096812,-8.056953867646484
136565.0117659767,-0.9085390965290125,-49.77868190597621,-6.141012388446782
146840.0745916684,-0.9218584340954667,-51.50382564110821,16.93550225029693
157888.2264736758,-0.9087575092504347,-46.09153097997094,9.449481430045026
169767.6341306978,-0.9117461633003181,-46.17835512955349,14.46144947894557
182540.8407075859,-0.9054614745437678,-46.76540293215089,-9.893342630329343
196275.0950548059,-0.9051295209860249,-58.10196863985063,7.590339677061948
211042.7057826744,-0.9244607548758046,-48.08618077661666,8.320364051827539
226921.4219544047,-0.9209982508251893,-49.07170157223,2.435229399710565
243994.8424222502,-0.9428276466108952,-48.83735286949297,-10.99648010600161
262352.855961835,-0.9492653480997658,-50.37296363034189,-20.27000596075828
282092.114521904,-0.9439171102960958,-49.06966694515981,-2.877767523948648
303316.5420810785,-0.9430075850768778,-49.14739558425162,-24.67807157227362
326137.881790662,-0.9594005294153767,-49.83088820328387,-16.62828361725693
350676.2842841177,-0.9705631229459,-48.95998058905626,9.070749207286042
377060.9402505672,-0.9701022079219707,-50.16592211425858,0.7920268765041953
405430.7606027094,-0.99677941327245,-48.61086566511033,5.373821461127456
435935.1078201324,-1.008606053560972,-48.91152596481746,-5.343391695240811
468734.5823184201,-1.01533364161094,-48.05383312024582,3.778821563539026
504001.8679841622,-1.021655904057159,-47.17420608106134,-7.904196848150377
541922.6413274659,-1.040298415782563,-49.59331852405861,14.27887341861748
582696.5490385166,-1.044406779731603,-48.65605477639959,8.149417160116315
626538.2590948555,-1.051742818049739,-47.15630308713936,-11.15937216016709
673678.5909532899,-1.05347369644381,-47.23786933650763,6.58928988408087
724365.7307767057,-1.074077899841263,-50.80688649895584,-0.8367044441600058
778866.5380937597,-1.075635652580028,-48.95824990903978,8.753459796366705
837467.9507707948,-1.092189128490788,-49.01725782783699,-0.1194520651099928
900478.4956929387,-1.09430755942614,-47.75594179054223,11.49284363666746
968229.9131078522,-1.109815720829659,-48.35711841588191,6.836477174420608
1041078.903184062,-1.116381893703939,-48.61136131684852,-3.645333855694787
1119409.003979202,-1.132811527633718,-48.32728064293857,1.251701137848954
1203632.610705364,-1.151206718853177,-50.47535397776609,7.373604258225157
1294193.146922664,-1.155934214374595,-47.91559343269446,4.754827183040859
1391567.399092011,-1.172953318800275,-48.12120964334414,2.24361564210173
1496268.026778092,-1.196594380511249,-50.13530057458794,8.695104009106537
1608846.261718418,-1.212274279400553,-49.30059971086656,1.424710114437573
1729894.809968567,-1.232231139539833,-48.25036921564995,11.96144091543331
1860050.972402943,-1.258603496282262,-48.92585936737318,8.783395695241474
2000000,-1.289420862825904,-47.73484453558781,3.215945825375371
