#Digilent WaveForms Network Analyzer - Bode
#Device Name: Discovery2
#Serial Number: SN:210321AFD7CC
#Date Time: 2020-11-20 14:03:26.505
#Start: 0.5 Hz
#Stop: 1e+06 Hz
#Steps: 201
#Wavegen: Wavegen1
#Amplification: 1 X
#Settle: 10 ms
#MinPeriods: 16 
#Channel: Channel 1
#Range: 54.3664 V
#Offset: 0.00145283 V
#Relative: no
#Channel: Channel 2
#Range: 54.9218 V
#Offset: 0.00173285 V
#Relative: yes

Frequency (Hz),Channel 1 Magnitude (dB),Channel 2 Magnitude (dB),Channel 2 Phase (deg)
0.500000000000001,0.0915669380510304,-0.01741941585975659,-0.09995799772150349
0.5376196753942351,0.08997160394907042,-0.01543315846048381,-0.0987418638195976
0.5780698307420054,0.08970252998926248,-0.0162327704182634,-0.1116723787185094
0.6215634295174334,0.09212342665769578,-0.01815749281606397,-0.1375055824815377
0.6683294584281787,0.08961870619839116,-0.01490578033441975,-0.1341541831891675
0.7186141329931247,0.09057946272184438,-0.0155692999427074,-0.1359954484325101
0.7726821938269451,0.09208819914974491,-0.01869608228694024,-0.1425353429938809
0.8308183004562936,0.09222299624510751,-0.01761428936933,-0.1549698918768456
0.8933285300058035,0.09057462846219924,-0.01557207923845819,-0.1617503979314279
0.9605419886442584,0.09114088945747412,-0.01651455241693477,-0.1870853184022963
1.032812544274916,0.09080944203277881,-0.01720934373578131,-0.19710901721092
1.110520689592347,0.09068380272655191,-0.0165057086659149,-0.2131447256924446
1.194075545314439,0.09059452686850111,-0.01770429705726395,-0.2334370818497433
1.283917014136281,0.09100007100855152,-0.01619114073266691,-0.2385661301421891
1.380518096746166,0.08964584442439637,-0.01573737379312633,-0.2505511525621813
1.484387382097079,0.09066745986513811,-0.01677246797207058,-0.2706891111709382
1.596071725044656,0.08884768145695426,-0.01554343107240396,-0.3080046114762567
1.716159125448846,0.08954537096533846,-0.01610246313155445,-0.3228302380488373
1.845281823897326,0.09108337212499402,-0.01674108675839978,-0.3376940182437131
1.984119630349121,0.09014258450992753,-0.01662338224191964,-0.3683074152194563
2.133403503223244,0.08985332181768732,-0.01620470423242725,-0.3920111119068679
2.293919397775608,0.09163629572228374,-0.01899101086606188,-0.4144468973946402
2.466512404025318,0.09101922775290455,-0.01871278711883587,-0.4622915600608479
2.652091196015887,0.09100393307421906,-0.01837050749323761,-0.4911422016724032
2.851632815835939,0.09120530170359328,-0.01885087004604165,-0.5295085506744783
3.066187817586526,0.08982521249488956,-0.01840445600644383,-0.5571178330587259
3.296885798377245,0.0904987202043926,-0.01737918071602116,-0.5975254883814785
3.544941345470869,0.08893398090151051,-0.01726066181946651,-0.6613820800994716
3.811660430887303,0.0902727932240707,-0.01771143590022057,-0.6993378639545114
4.098447287133355,0.08942656256151911,-0.01788716592527638,-0.7595731402481576
4.406811800258026,0.08985068331397424,-0.01845732512747276,-0.8150329605300017
4.738377459156411,0.09120832286914415,-0.01958863177476133,-0.8783541617164943
5.094889902974049,0.08938875004707528,-0.01825437049451972,-0.9423838313837791
5.478226111612536,0.09056287809681629,-0.02056077346779434,-1.005672885437946
5.890404287722709,0.0904056895315513,-0.02014431425740718,-1.094227715704278
6.333594482212573,0.08938619847642876,-0.01958131758317974,-1.17386519112361
6.810130019211655,0.08956162775866831,-0.02098575376060479,-1.266756817856432
7.322519780642227,0.09019115404424269,-0.0222027036686066,-1.343374056875788
7.873461415073447,0.09025914806033263,-0.0215847080711707,-1.445886863111625
8.465855540401643,0.08932441301945437,-0.02163912191417652,-1.552343901164363
9.102821015130417,0.09059523677125961,-0.02309606992648974,-1.662466174193185
9.787711358652452,0.08971329519425961,-0.02350143600512481,-1.799663555208276
10.52413240698237,0.09007046620249162,-0.02473216652213203,-1.932867823813098
11.31596129689563,0.08955249482518025,-0.02449456466919954,-2.081773389481143
12.16736687842149,0.08876089395159553,-0.02591097774961732,-2.240165674570638
13.08283166315903,0.09044411483287787,-0.02789074206876915,-2.407543559793254
14.06717542396995,0.09003551461623439,-0.02952440140335378,-2.590334266007147
15.12558057029694,0.08992293934159173,-0.02969267430823739,-2.775621660946609
16.26361943270475,0.09042817187066138,-0.03484864910690698,-2.9733467059944
17.48728360029217,0.08919784281996623,-0.03445965073166805,-3.222167154922118
18.80301546543201,0.08984822331538868,-0.03916931447172808,-3.446347665198402
20.21774214191663,0.08932000528730012,-0.04175036737841457,-3.718061965914757
21.73891193508309,0.09054236215112402,-0.04544331486426695,-3.990433061544485
23.37453355592647,0.08866995080560411,-0.0472425786187094,-4.28371146206905
25.13321828565763,0.08893860340718657,-0.05242651298642208,-4.610535971355304
27.02422531269536,0.08928792964761656,-0.05641531092643894,-4.951412877322127
29.0575104807839,0.08763887179065566,-0.06099314721612947,-5.305860035792449
31.24377870488712,0.08915324280529997,-0.06866987248017886,-5.704999480127043
33.59454033082145,0.08789249327413529,-0.07533560996587271,-6.112463989582045
36.12217173534947,0.08726832304707541,-0.08403888237501639,-6.579456354444588
38.83998048578678,0.08798277392240088,-0.09400833025149138,-7.06798059822556
41.76227540217405,0.08761171027626448,-0.104526781920157,-7.596477932898196
44.90444189088293,0.08776585050862729,-0.1174290027708282,-8.155374073579623
48.28302294627144,0.08727941704107606,-0.131459846420704,-8.768728212951601
51.91580624685372,0.08199600069074131,-0.1459334839801739,-9.407768585792361
55.82191780452688,0.07575857184702593,-0.1657298544222467,-10.10535843823127
60.02192265990682,0.09215641790189724,-0.1893759725144834,-10.81899805072852
64.53793315391371,0.07439428365637034,-0.2109239466756847,-11.62893831501474
69.39372534564386,0.08208614670097807,-0.2393516634231214,-12.47717385358311
74.61486418944335,0.08311847697612898,-0.2724616109926822,-13.36353254793757
80.22883813022678,0.08142217548256542,-0.3071704045606364,-14.33041018173427
86.26520382565812,0.07948351042702856,-0.3491378688690424,-15.34086376687043
92.75574175713568,0.07784573230874546,-0.3975441757150639,-16.43689754884263
99.73462354884536,0.07541632446563114,-0.451133241613968,-17.58953112954848
107.2385918757928,0.07363865245668846,-0.5133285819950074,-18.81681504909689
115.307153907997,0.07071621061905584,-0.5822081828045576,-20.12665230728938
123.9827893093007,0.06943710073871064,-0.6623126952042103,-21.48939636982526
133.3111738858759,0.06673716648621186,-0.7545159229103746,-22.9277273302873
143.3414200618979,0.06288729563048834,-0.8557824650054778,-24.44634768087106
154.1263354484524,0.06006068102454098,-0.9715213994979273,-26.04051405642636
165.7227008669996,0.05446369942543186,-1.097860460606765,-27.72465635695858
178.1915692911442,0.05055408238414701,-1.24477452965921,-29.46176315253582
191.598587280588,0.04663045840828463,-1.405433839168373,-31.26770246235458
206.0143405995675,0.03937776961952243,-1.580122152739014,-33.11323816248751
221.5147258393931,0.03509366997673395,-1.777109454279767,-35.06351608240755
238.1813500016349,0.02801247463136993,-1.992993822941252,-37.02756975084685
256.1019601456786,0.02166662925991123,-2.227788014245373,-39.03037002434944
275.3709053626943,0.01275506387188146,-2.483346232072629,-41.07888763856425
296.0896335082158,0.006123846575375763,-2.76795890431151,-43.15899342644834
318.36722530857,-0.00521454377909315,-3.065068118933384,-45.23711281607946
342.3209686531123,-0.01763416820794273,-3.390012944405292,-47.32965727741302
368.0769760958527,-0.02637028996280018,-3.739124880372779,-49.39646079112384
395.7708488174867,-0.03961463671056987,-4.111725138969672,-51.4794639663734
425.5483905435162,-0.05534485388090874,-4.499283083074333,-53.52256733583886
457.5663751770873,-0.06868868382317679,-4.912420385792895,-55.50936421427811
491.9933721880444,-0.08825172559253953,-5.34256900072294,-57.49045735510889
529.0106341037025,-0.1044009778493805,-5.80156690550343,-59.37248583281023
568.8130507738608,-0.127437599865828,-6.271171607353318,-61.26844984660322
611.6101754340946,-0.1466936526741829,-6.771155153538169,-62.98568949870442
657.6273279693768,-0.1722623702286924,-7.280112052414179,-64.73094414768047
707.1067811865482,-0.195252286441516,-7.81144990556093,-66.32922407991549
760.3090363411482,-0.2274473694877592,-8.341064424594256,-67.87475515378925
817.5141946340618,-0.2519239739193164,-8.879476118535546,-69.33567946521377
879.0234318986868,-0.284650500335155,-9.441235904311387,-70.77337548131413
945.160584242595,-0.3144259014696377,-10.00010318720275,-72.06366848603622
1016.273852991858,-0.3491782919013086,-10.58728358520956,-73.29497127263537
1092.737637914261,-0.3850656190975346,-11.19236020224969,-74.44844544872626
1174.954508373054,-0.4147029925505849,-11.78854607886455,-75.46577263864251
1263.357322789028,-0.4528561180767416,-12.41560972430759,-76.46981098755154
1358.411507569532,-0.4858614906485954,-13.0136682553821,-77.22850527180941
1460.617507502648,-0.5209920005373435,-13.61841917834112,-78.07483813765589
1570.513420517419,-0.5572482885058266,-14.24456019710469,-78.92961591524227
1688.677830681726,-0.5937302288873539,-14.89223192483712,-79.66863338566253
1815.732854353095,-0.6242112980242743,-15.49778839280154,-80.21281559235609
1952.347415519916,-0.6535881889606823,-16.09726156964406,-80.57543421616825
2099.24076757718,-0.6835904236864134,-16.72688050265761,-81.24580126259535
2257.186280078372,-0.7062441905674668,-17.35828125128316,-81.42429835287578
2427.015510400108,-0.7359446633031943,-17.94806404277797,-81.98533072968746
2609.622581756154,-0.7541853279213845,-18.52366243101173,-82.28741792246466
2805.968890610416,-0.7747498238405848,-19.1693506334019,-82.39337665824553
3017.088168272584,-0.796141105752783,-19.78017316859741,-82.50129061070302
3244.091923324981,-0.8108525869027555,-20.40963937744005,-82.73346706493152
3488.175293534069,-0.8300002288845848,-20.99753661955461,-83.07726551889598
3750.623338055949,-0.8357036448669309,-21.59915844228539,-83.24433678436182
4032.817803063355,-0.8537616513386157,-22.21687650965907,-83.18639309925112
4336.244396414022,-0.8598691982483493,-22.84024504359905,-83.16269373305266
4662.500609660346,-0.8662860965418273,-23.44364670918311,-82.85037735203377
5013.304128582031,-0.8714875507254438,-24.12168136290759,-83.4522934025216
5390.501876521695,-0.8823319227059403,-24.69904366467691,-83.55976394277154
5796.079738135205,-0.8837165859700418,-25.30263653141264,-82.85711558107562
6232.173014750697,-0.8872479136140626,-25.9087236148012,-82.77432548525948
6701.077666381949,-0.9010897956716822,-26.53732211874171,-83.14988673481281
7205.262399583635,-0.9081944622723401,-27.15555474644403,-83.03086426537085
7747.381664788874,-0.9122409406166836,-27.85632038098487,-83.01684489554427
8330.289631558069,-0.8957613391909331,-28.41041385615703,-82.6249099530574
8957.055215316414,-0.8989938760911325,-29.04679986434484,-82.01426717085752
9630.978234693281,-0.903491626286355,-29.66696202760883,-81.55659239422214
10355.60678452948,-0.9051059067042606,-30.21603737733496,-80.58748154592337
11134.75591601812,-0.8998885976112438,-30.94415377920185,-82.36087155091323
11972.52772232739,-0.8986261398315663,-31.36504709040942,-79.99214508939457
12873.33293545224,-0.9007623926511703,-32.29311513139412,-79.16837195419252
13841.91414799948,-0.8962674000824817,-32.51561003148046,-80.17721568535103
14883.37078216467,-0.8974706940976213,-33.25823820766183,-78.57488603297806
16003.1859373588,-0.9003202973189952,-33.85237345822821,-79.5907123178044
17207.25525783284,-0.9069462478377187,-34.71988214828143,-77.78025082070901
18501.91797228364,-0.9027862265490885,-35.1693093750385,-78.54943885137649
19893.99026885976,-0.897320639005085,-35.54173461167505,-75.84011842294996
21390.80118128088,-0.9129301536455235,-36.38495402308234,-76.93291858647359
23000.23117500567,-0.9022891889371074,-37.03847821153843,-78.84383777031471
24730.75363659779,-0.9049779043406919,-37.23195666411809,-72.92472469650187
26591.47948472496,-0.9137710381611972,-37.78847342016278,-74.27731031497308
28592.20513766054,-0.9140218990609944,-37.98845727050576,-72.02394676625818
30743.46408982883,-0.9086153676095901,-39.1062295643362,-71.11152009453315
33056.58236893616,-0.9120768692859773,-40.51843119469836,-72.61365178956429
35543.73816566046,-0.9223228944424257,-39.82245592706438,-74.20298728493351
38218.02594984006,-0.9093154304786035,-40.36999892781428,-66.85912969665436
41093.52541072287,-0.9275698671829742,-40.77348601614655,-61.16296160495404
44185.37558423511,-0.9148972519276131,-42.39566251286195,-68.34559537781314
47509.85455753761,-0.9271571781826409,-42.20388395961835,-63.12280352981373
51084.46517050129,-0.9194020781922321,-42.15946753850727,-56.20928903323146
54928.02716530595,-0.9251018131566034,-42.75657338485351,-64.28694873432343
59060.77626931492,-0.9266461795741604,-43.9125361685094,-59.8539899494605
63504.4707328812,-0.9179414259797072,-44.81566984197792,-64.82121424146689
68282.50588298836,-0.9180561574085145,-45.24640434773378,-57.25586387935618
73420.03729583419,-0.9056717216560662,-44.4849962347793,-51.98038926463234
78944.1132368379,-0.919131071598666,-47.92634636412392,-45.69347474017675
84883.81706534892,-0.9172709116978074,-46.6218583462086,-58.1058629546592
91270.42035379294,-0.9229299980527739,-45.66377821614303,-44.54267104719538
98137.54752740294,-0.9189078800777,-44.22972698968779,-52.1177404153285
105521.3528913372,-0.9059426724530563,-44.2602566446236,-34.33570275817132
113460.7109772023,-0.9145993252014653,-46.7815300785139,-39.90622865573718
121997.4212111251,-0.9247092235489232,-47.71542329833736,-23.87553315170074
131176.4279809175,-0.9282702441623154,-45.90862021071472,-43.80912848630112
141046.057260952,-0.9215602446589489,-46.94256655746568,-58.77901757667117
151658.2710405393,-0.9142417034023154,-50.50449033803382,-31.81190008135823
163068.940895331,-0.9315473610262333,-48.48532825114624,-30.67234605942966
175338.1421420589,-0.9115393705027814,-48.43726186394809,-32.34011440179388
188530.4701252836,-0.9424956316266171,-47.9289417170566,-37.67329455549485
202715.3803013547,-0.926030615493655,-43.12684273004484,-35.05646670640603
217967.5539100662,-0.9326150855691975,-46.42672534798617,-24.64182512110381
234367.2911592101,-0.9436449846578386,-48.77819525109064,-27.87726534899785
252000.9339920811,-0.9576523240870314,-48.17389448346336,-16.40760633520194
270961.3206637329,-0.9575793086966456,-47.17547786102824,-49.75431880153023
291348.2745192583,-0.9612500320550953,-48.03443258613298,-2.319667952945949
313269.1295474278,-0.9681863407369533,-51.61576119224794,-17.68444373721462
336839.2954766449,-0.992374926238081,-51.57463770916991,9.359021619291418
362182.8653883528,-0.9872866320717713,-50.96967755029943,-26.25618665281871
389433.2690468798,-0.9991701838273049,-50.50828608306438,18.8128838677863
418733.9753853974,-1.006215633588543,-46.98121750234393,8.664372581805139
450239.2478464693,-1.018436542895272,-51.74295140756704,-6.077787120978222
484114.9565539261,-1.03876516402058,-48.12630086185352,-10.81381063069892
520539.4515920311,-1.037017685062903,-47.91570565754882,-8.314012824747421
559704.5019896011,-1.041211246197842,-49.33577405502702,-9.397349930442545
601816.3053526818,-1.052139895880263,-51.01663158662424,-3.98079819643263
647096.5734613322,-1.063839051437114,-50.35441657288744,-3.179524997684553
695783.6995460056,-1.07033008539224,-52.61905461175014,-4.766336839345955
748134.013389046,-1.079233237828704,-50.84390397402647,-7.670962893378857
804423.1308592092,-1.084509243549945,-47.77544188109672,-5.085720347923456
864947.4049842835,-1.099480492890933,-50.38133916893323,2.79622781891257
930025.4862014715,-1.111977742006271,-49.01613389953482,-10.70913009878942
1000000,-1.118133980427491,-48.97870518421273,4.388568734239513
